
Circuit: * /home/michi/tryprogressbar.oregano

Doing analysis at TEMP = 27.000000 and TNOM = 27.000000


No. of Data Rows : 1

Initial Transient Solution
--------------------------

Node                                   Voltage
----                                   -------
5                                            0
1                                            0
3                                            0
2                                            0
4                                            0
l_l1#branch                                  0
v_v1#branch                                  0
v_v2#branch                                  0
v_v3#branch                                  0


No. of Data Rows : 284
	Node                                  Voltage
	----                                  -------
	----	-------
	V(4)                             2.000000e+01
	V(2)                             0.000000e+00
	V(3)                             1.934065e+01
	V(1)                             2.000000e+01
	V(5)                             2.000000e+01

	Source	Current
	------	-------

	v_v3#branch                      -1.93406e-03
	v_v2#branch                      0.000000e+00
	v_v1#branch                      -1.93406e-03
	l_l1#branch                      1.934065e-03

 Capacitor models (Fixed capacitor)
      model                     C

        cap                     0
         cj                     0
       cjsw                     0
       defw                 1e-05
       defl                     0
     narrow                     0
      short                     0
        del                     0
        tc1                     0
        tc2                     0
         di                     0
      thick                     0
     bv_max                 1e+99

 Diode models (Junction Diode model)
      model               d1n4148

      level                     1
         is                 1e-13
        jsw                     0
         rs                    16
        trs                     0
       trs2                     0
          n                     1
         ns                     1
         tt               1.2e-08
       ttt1                     0
       ttt2                     0
        cjo                 2e-12
         vj                     1
          m                   0.5
        tm1                     0
        tm2                     0
        cjp                     0
        php                     1
       mjsw                  0.33
        ikf                     0
        ikr                     0
        nbv                     1
       area                     1
         pj                     0
       tlev                     0
      tlevc                     0
         eg                  1.11
        xti                     3
        cta                     0
        ctp                     0
        ctp                     0
        tpb                     0
       tphp                     0
       jtun                     0
     jtunsw                     0
       ntun                    30
     xtitun                     3
        keg                     1
         kf                     0
         af                     1
         fc                   0.5
        fcs                   0.5
         bv                   100
        ibv             3.867e-10
        tcv                     0
     fv_max                 1e+99
     bv_max                 1e+99

 Inductor models (Fixed inductor)
      model                     L

        ind                     0
        tc1                     0
        tc2                     0
      csect                     0
     length                     0
         nt                     0
         mu                     0

 Resistor models (Simple linear resistor)
      model                     R

        rsh                     0
     narrow                     0
      short                     0
        tc1                     0
        tc2                     0
       defw                 1e-05
          l                 1e-05
         kf                     0
         af                     0
          r                     0
     bv_max                 1e+99

 Switch models (Ideal voltage controlled switch)
      model                  m_s1


 Capacitor: Fixed capacitor
     device                  c_c1
      model                     C
capacitance                0.0001
        cap                0.0001
          c                0.0001
      dtemp                     0
     bv_max                 1e+99
          i           -0.00599982
          p             -0.359989

 Diode: Junction Diode model
     device                  d_d1
      model               d1n4148
         vd                   -60
         id           1.66255e-09
         gd              0.103611
         cd           2.56074e-13

 Inductor: Fixed inductor
     device                  l_l1
      model                     L
 inductance                0.0003
      dtemp                     0
         nt                     0
       flux           4.94978e-08
          v                    20
          i           0.000164993
          p            0.00329985

 Resistor: Simple linear resistor
     device                  r_r1
      model                     R
 resistance                 10000
         ac                 10000
      dtemp                     0
     bv_max                 1e+99
      noisy                     1
          i                 0.006
          p                  0.36

 Switch: Ideal voltage controlled switch
     device                    s1
      model                  m_s1
          i           0.000164991
          p           2.72221e-09

 Vsource: Independent voltage source
     device                  v_v1                  v_v2                  v_v3
         dc                    20                     0                     0
      acmag                     0                     0                     0
      pulse         -                    -5         -
                                         25          
                                          0          
                                          0          
                                          0          
                                      1e-06          
                                      1e-05          
       sine         -                    -5         -
                                         25          
                                          0          
                                          0          
                                          0          
                                      1e-06          
                                      1e-05          
        sin         -                    -5         -
                                         25          
                                          0          
                                          0          
                                          0          
                                      1e-06          
                                      1e-05          
        exp         -                    -5         -
                                         25          
                                          0          
                                          0          
                                          0          
                                      1e-06          
                                      1e-05          
        pwl         -                    -5         -
                                         25          
                                          0          
                                          0          
                                          0          
                                      1e-06          
                                      1e-05          
       sffm         -                    -5         -
                                         25          
                                          0          
                                          0          
                                          0          
                                      1e-06          
                                      1e-05          
         am         -                    -5         -
                                         25          
                                          0          
                                          0          
                                          0          
                                      1e-06          
                                      1e-05          
    trnoise         -                    -5         -
                                         25          
                                          0          
                                          0          
                                          0          
                                      1e-06          
                                      1e-05          
   trrandom         -                    -5         -
                                         25          
                                          0          
                                          0          
                                          0          
                                      1e-06          
                                      1e-05          
          i          -0.000164993                     0          -1.66255e-09
          p            0.00329986                    -0                     0

                      * /home/michi/tryprogressbar.oregano
                      Transient Analysis  Fri Jun  9 21:36:56  2017
--------------------------------------------------------------------------------
Index   time            V(1)            V(2)            V(3)            
--------------------------------------------------------------------------------
0	0.000000e+00	0.000000e+00	0.000000e+00	0.000000e+00	
1	1.000000e-13	6.000000e+01	-4.70000e+00	6.000000e+01	
2	2.000000e-13	6.000000e+01	-4.40000e+00	6.000000e+01	
3	4.000000e-13	6.000000e+01	-3.80000e+00	6.000000e+01	
4	8.000000e-13	6.000000e+01	-2.60000e+00	6.000000e+01	
5	1.600000e-12	6.000000e+01	-2.00000e-01	6.000000e+01	
6	3.200000e-12	5.999999e+01	4.600000e+00	6.000000e+01	
7	4.666667e-12	5.999999e+01	9.000000e+00	6.000000e+01	
8	5.358333e-12	5.999999e+01	1.107500e+01	6.000000e+01	
9	6.568750e-12	5.999998e+01	1.470625e+01	6.000000e+01	
10	6.903776e-12	5.999998e+01	1.571133e+01	6.000000e+01	
11	7.490072e-12	5.999998e+01	1.747021e+01	6.000000e+01	
12	7.652350e-12	5.999998e+01	1.795705e+01	6.000000e+01	
13	7.936337e-12	5.999998e+01	1.880901e+01	6.000000e+01	
14	8.014940e-12	5.999998e+01	1.904482e+01	6.000000e+01	
15	8.152496e-12	5.999998e+01	1.945749e+01	6.000000e+01	
16	8.190570e-12	5.999998e+01	1.957171e+01	6.000000e+01	
17	8.257199e-12	5.999998e+01	1.977160e+01	6.000000e+01	
18	8.275641e-12	5.999998e+01	1.982692e+01	6.000000e+01	
19	8.307914e-12	5.999998e+01	1.992374e+01	6.000000e+01	
20	8.339341e-12	3.724889e-01	2.001802e+01	6.000000e+01	
21	8.368989e-12	3.721389e-01	2.010697e+01	6.000000e+01	
22	8.415783e-12	3.715661e-01	2.024735e+01	6.000000e+01	
23	8.462595e-12	3.709686e-01	2.038778e+01	6.000000e+01	
24	8.556218e-12	3.697067e-01	2.066865e+01	6.000000e+01	
25	8.743465e-12	3.669207e-01	2.123039e+01	6.000000e+01	
26	9.117958e-12	3.603499e-01	2.235387e+01	6.000000e+01	
27	9.866944e-12	3.436482e-01	2.460083e+01	6.000000e+01	
28	1.000000e-11	3.402226e-01	2.500000e+01	6.000000e+01	
29	1.014980e-11	3.362220e-01	2.500000e+01	6.000000e+01	
30	1.044939e-11	3.277442e-01	2.500000e+01	6.000000e+01	
31	1.104858e-11	3.093324e-01	2.500000e+01	6.000000e+01	
32	1.224696e-11	2.687330e-01	2.500000e+01	6.000000e+01	
33	1.464371e-11	1.860234e-01	2.500000e+01	6.000000e+01	
34	1.943722e-11	6.687593e-02	2.500000e+01	6.000000e+01	
35	2.680459e-11	5.465349e-03	2.500000e+01	6.000000e+01	
36	3.505704e-11	7.712940e-06	2.500000e+01	6.000000e+01	
37	4.505704e-11	-6.02386e-07	2.500000e+01	6.000000e+01	
38	5.505704e-11	2.702691e-07	2.500000e+01	6.000000e+01	
39	6.505704e-11	2.593860e-07	2.500000e+01	6.000000e+01	
40	7.505704e-11	3.334843e-07	2.500000e+01	6.000000e+01	
41	8.505704e-11	3.994362e-07	2.500000e+01	6.000000e+01	
42	9.505704e-11	4.661716e-07	2.500000e+01	6.000000e+01	
43	1.050570e-10	5.328316e-07	2.500000e+01	6.000000e+01	
44	1.150570e-10	5.994989e-07	2.500000e+01	6.000000e+01	
45	1.250570e-10	6.661655e-07	2.500000e+01	6.000000e+01	
46	1.350570e-10	7.328321e-07	2.500000e+01	6.000000e+01	
47	1.450570e-10	7.994989e-07	2.500000e+01	6.000000e+01	
48	1.550570e-10	8.661655e-07	2.500000e+01	6.000000e+01	
49	1.650570e-10	9.328322e-07	2.500000e+01	6.000000e+01	
50	1.750570e-10	9.994988e-07	2.500000e+01	6.000000e+01	
51	1.850570e-10	1.066166e-06	2.500000e+01	6.000000e+01	
52	1.950570e-10	1.132832e-06	2.500000e+01	6.000000e+01	
53	2.050570e-10	1.199499e-06	2.500000e+01	6.000000e+01	
54	2.150570e-10	1.266165e-06	2.500000e+01	6.000000e+01	

Index   time            V(1)            V(2)            V(3)            
--------------------------------------------------------------------------------
55	2.250570e-10	1.332832e-06	2.500000e+01	6.000000e+01	
56	2.350570e-10	1.399499e-06	2.500000e+01	6.000000e+01	
57	2.450570e-10	1.466165e-06	2.500000e+01	6.000000e+01	
58	2.550570e-10	1.532832e-06	2.500000e+01	6.000000e+01	
59	2.650570e-10	1.599499e-06	2.500000e+01	6.000000e+01	
60	2.750570e-10	1.666165e-06	2.500000e+01	6.000000e+01	
61	2.850570e-10	1.732832e-06	2.500000e+01	6.000000e+01	
62	2.950570e-10	1.799499e-06	2.500000e+01	6.000000e+01	
63	3.050570e-10	1.866165e-06	2.500000e+01	6.000000e+01	
64	3.150570e-10	1.932832e-06	2.500000e+01	6.000000e+01	
65	3.250570e-10	1.999499e-06	2.500000e+01	6.000000e+01	
66	3.350570e-10	2.066165e-06	2.500000e+01	6.000000e+01	
67	3.450570e-10	2.132832e-06	2.500000e+01	6.000000e+01	
68	3.550570e-10	2.199499e-06	2.500000e+01	6.000000e+01	
69	3.650570e-10	2.266165e-06	2.500000e+01	6.000000e+01	
70	3.750570e-10	2.332832e-06	2.500000e+01	6.000000e+01	
71	3.850570e-10	2.399499e-06	2.500000e+01	6.000000e+01	
72	3.950570e-10	2.466165e-06	2.500000e+01	6.000000e+01	
73	4.050570e-10	2.532832e-06	2.500000e+01	6.000000e+01	
74	4.150570e-10	2.599499e-06	2.500000e+01	6.000000e+01	
75	4.250570e-10	2.666166e-06	2.500000e+01	6.000000e+01	
76	4.350570e-10	2.732832e-06	2.500000e+01	6.000000e+01	
77	4.450570e-10	2.799499e-06	2.500000e+01	6.000000e+01	
78	4.550570e-10	2.866166e-06	2.500000e+01	6.000000e+01	
79	4.650570e-10	2.932832e-06	2.500000e+01	6.000000e+01	
80	4.750570e-10	2.999499e-06	2.500000e+01	6.000000e+01	
81	4.850570e-10	3.066165e-06	2.500000e+01	6.000000e+01	
82	4.950570e-10	3.132832e-06	2.500000e+01	6.000000e+01	
83	5.050570e-10	3.199498e-06	2.500000e+01	6.000000e+01	
84	5.150570e-10	3.266165e-06	2.500000e+01	6.000000e+01	
85	5.250570e-10	3.332832e-06	2.500000e+01	6.000000e+01	
86	5.350570e-10	3.399499e-06	2.500000e+01	6.000000e+01	
87	5.450570e-10	3.466166e-06	2.500000e+01	6.000000e+01	
88	5.550570e-10	3.532832e-06	2.500000e+01	6.000000e+01	
89	5.650570e-10	3.599499e-06	2.500000e+01	6.000000e+01	
90	5.750570e-10	3.666165e-06	2.500000e+01	6.000000e+01	
91	5.850570e-10	3.732832e-06	2.500000e+01	6.000000e+01	
92	5.950570e-10	3.799498e-06	2.500000e+01	6.000000e+01	
93	6.050570e-10	3.866165e-06	2.500000e+01	6.000000e+01	
94	6.150570e-10	3.932832e-06	2.500000e+01	6.000000e+01	
95	6.250570e-10	3.999498e-06	2.500000e+01	6.000000e+01	
96	6.350570e-10	4.066165e-06	2.500000e+01	6.000000e+01	
97	6.450570e-10	4.132832e-06	2.500000e+01	6.000000e+01	
98	6.550570e-10	4.199499e-06	2.500000e+01	6.000000e+01	
99	6.650570e-10	4.266165e-06	2.500000e+01	6.000000e+01	
100	6.750570e-10	4.332832e-06	2.500000e+01	6.000000e+01	
101	6.850570e-10	4.399498e-06	2.500000e+01	6.000000e+01	
102	6.950570e-10	4.466165e-06	2.500000e+01	6.000000e+01	
103	7.050570e-10	4.532832e-06	2.500000e+01	6.000000e+01	
104	7.150570e-10	4.599498e-06	2.500000e+01	6.000000e+01	
105	7.250570e-10	4.666165e-06	2.500000e+01	6.000000e+01	
106	7.350570e-10	4.732832e-06	2.500000e+01	6.000000e+01	
107	7.450570e-10	4.799499e-06	2.500000e+01	6.000000e+01	
108	7.550570e-10	4.866165e-06	2.500000e+01	6.000000e+01	
109	7.650570e-10	4.932831e-06	2.500000e+01	6.000000e+01	
110	7.750570e-10	4.999498e-06	2.500000e+01	6.000000e+01	
111	7.850570e-10	5.066164e-06	2.500000e+01	6.000000e+01	
112	7.950570e-10	5.132831e-06	2.500000e+01	6.000000e+01	

Index   time            V(1)            V(2)            V(3)            
--------------------------------------------------------------------------------
113	8.050570e-10	5.199498e-06	2.500000e+01	6.000000e+01	
114	8.150570e-10	5.266165e-06	2.500000e+01	6.000000e+01	
115	8.250570e-10	5.332831e-06	2.500000e+01	6.000000e+01	
116	8.350570e-10	5.399498e-06	2.500000e+01	6.000000e+01	
117	8.450570e-10	5.466165e-06	2.500000e+01	6.000000e+01	
118	8.550570e-10	5.532831e-06	2.500000e+01	6.000000e+01	
119	8.650570e-10	5.599498e-06	2.500000e+01	6.000000e+01	
120	8.750570e-10	5.666165e-06	2.500000e+01	6.000000e+01	
121	8.850570e-10	5.732831e-06	2.500000e+01	6.000000e+01	
122	8.950570e-10	5.799498e-06	2.500000e+01	6.000000e+01	
123	9.050570e-10	5.866165e-06	2.500000e+01	6.000000e+01	
124	9.150570e-10	5.932831e-06	2.500000e+01	6.000000e+01	
125	9.250570e-10	5.999497e-06	2.500000e+01	6.000000e+01	
126	9.350570e-10	6.066165e-06	2.500000e+01	6.000000e+01	
127	9.450570e-10	6.132832e-06	2.500000e+01	6.000000e+01	
128	9.550570e-10	6.199498e-06	2.500000e+01	6.000000e+01	
129	9.650570e-10	6.266165e-06	2.500000e+01	6.000000e+01	
130	9.750570e-10	6.332832e-06	2.500000e+01	6.000000e+01	
131	9.850570e-10	6.399497e-06	2.500000e+01	6.000000e+01	
132	9.950570e-10	6.466164e-06	2.500000e+01	6.000000e+01	
133	1.005057e-09	6.532831e-06	2.500000e+01	6.000000e+01	
134	1.015057e-09	6.599497e-06	2.500000e+01	6.000000e+01	
135	1.025057e-09	6.666165e-06	2.500000e+01	6.000000e+01	
136	1.035057e-09	6.732832e-06	2.500000e+01	6.000000e+01	
137	1.045057e-09	6.799498e-06	2.500000e+01	6.000000e+01	
138	1.055057e-09	6.866164e-06	2.500000e+01	6.000000e+01	
139	1.065057e-09	6.932831e-06	2.500000e+01	6.000000e+01	
140	1.075057e-09	6.999498e-06	2.500000e+01	6.000000e+01	
141	1.085057e-09	7.066164e-06	2.500000e+01	6.000000e+01	
142	1.095057e-09	7.132830e-06	2.500000e+01	6.000000e+01	
143	1.105057e-09	7.199496e-06	2.500000e+01	6.000000e+01	
144	1.115057e-09	7.266163e-06	2.500000e+01	6.000000e+01	
145	1.125057e-09	7.332830e-06	2.500000e+01	6.000000e+01	
146	1.135057e-09	7.399497e-06	2.500000e+01	6.000000e+01	
147	1.145057e-09	7.466164e-06	2.500000e+01	6.000000e+01	
148	1.155057e-09	7.532831e-06	2.500000e+01	6.000000e+01	
149	1.165057e-09	7.599498e-06	2.500000e+01	6.000000e+01	
150	1.175057e-09	7.666164e-06	2.500000e+01	6.000000e+01	
151	1.185057e-09	7.732831e-06	2.500000e+01	6.000000e+01	
152	1.195057e-09	7.799498e-06	2.500000e+01	6.000000e+01	
153	1.205057e-09	7.866164e-06	2.500000e+01	6.000000e+01	
154	1.215057e-09	7.932830e-06	2.500000e+01	6.000000e+01	
155	1.225057e-09	7.999497e-06	2.500000e+01	6.000000e+01	
156	1.235057e-09	8.066164e-06	2.500000e+01	6.000000e+01	
157	1.245057e-09	8.132831e-06	2.500000e+01	6.000000e+01	
158	1.255057e-09	8.199497e-06	2.500000e+01	6.000000e+01	
159	1.265057e-09	8.266164e-06	2.500000e+01	6.000000e+01	
160	1.275057e-09	8.332830e-06	2.500000e+01	6.000000e+01	
161	1.285057e-09	8.399498e-06	2.500000e+01	6.000000e+01	
162	1.295057e-09	8.466164e-06	2.500000e+01	6.000000e+01	
163	1.305057e-09	8.532830e-06	2.500000e+01	6.000000e+01	
164	1.315057e-09	8.599498e-06	2.500000e+01	6.000000e+01	
165	1.325057e-09	8.666164e-06	2.500000e+01	6.000000e+01	
166	1.335057e-09	8.732830e-06	2.500000e+01	6.000000e+01	
167	1.345057e-09	8.799496e-06	2.500000e+01	6.000000e+01	
168	1.355057e-09	8.866164e-06	2.500000e+01	6.000000e+01	
169	1.365057e-09	8.932830e-06	2.500000e+01	6.000000e+01	
170	1.375057e-09	8.999496e-06	2.500000e+01	6.000000e+01	

Index   time            V(1)            V(2)            V(3)            
